
T09F8 000:330 SEGGER J-Link V5.10h Log File (0001ms, 0277ms total)
T09F8 000:330 DLL Compiled: Jan 21 2016 19:24:29 (0001ms, 0277ms total)
T09F8 000:330 Logging started @ 2019-12-18 16:03 (0001ms, 0277ms total)
T09F8 000:331 JLINK_SetWarnOutHandler(...) (0000ms, 0277ms total)
T09F8 000:331 JLINK_OpenEx(...)
Firmware: J-Link V9 compiled Apr 20 2018 16:47:26
Hardware: V9.60
S/N: 69663900
Feature(s): RDI, GDB, FlashDL, FlashBP, JFlash  returns O.K. (0278ms, 0555ms total)
T09F8 000:609 JLINK_SetErrorOutHandler(...) (0000ms, 0555ms total)
T09F8 000:609 JLINK_ExecCommand("ProjectFile = "C:\Users\125-y\Desktop\hardware\test\USER\JLinkSettings.ini"", ...)  returns 0x00 (0002ms, 0557ms total)
T09F8 000:618 JLINK_ExecCommand("Device = STM32F103ZE", ...)Device "STM32F103ZE" selected.  returns 0x00 (0014ms, 0571ms total)
T09F8 000:632 JLINK_ExecCommand("DisableConnectionTimeout", ...)  returns 0x01 (0000ms, 0571ms total)
T09F8 000:632 JLINK_GetHardwareVersion()  returns 0x17700 (0000ms, 0571ms total)
T09F8 000:632 JLINK_GetDLLVersion()  returns 51008 (0000ms, 0571ms total)
T09F8 000:632 JLINK_GetFirmwareString(...) (0000ms, 0571ms total)
T09F8 000:656 JLINK_GetDLLVersion()  returns 51008 (0000ms, 0571ms total)
T09F8 000:656 JLINK_GetCompileDateTime() (0000ms, 0571ms total)
T09F8 000:660 JLINK_GetFirmwareString(...) (0000ms, 0571ms total)
T09F8 000:665 JLINK_GetHardwareVersion()  returns 0x17700 (0000ms, 0571ms total)
T09F8 000:685 JLINK_TIF_Select(JLINKARM_TIF_JTAG)  returns 0x00 (0001ms, 0572ms total)
T09F8 000:686 JLINK_SetSpeed(10000) (0000ms, 0572ms total)
T09F8 000:686 JLINK_GetIdData(...) >0x2F8 JTAG>TotalIRLen = 9, IRPrint = 0x0011 >0x30 JTAG> >0x210 JTAG> >0x40 JTAG> >0x40 JTAG> >0x40 JTAG> >0x30 JTAG> >0x40 JTAG> >0x40 JTAG> >0x40 JTAG> >0x40 JTAG> >0x40 JTAG> >0x40 JTAG> >0x40 JTAG> >0x40 JTAG> >0x40 JTAG> >0x40 JTAG> >0x40 JTAG> >0x40 JTAG> >0x40 JTAG> >0x40 JTAG> >0x2F8 JTAG>TotalIRLen = 9, IRPrint = 0x0011 >0x30 JTAG> >0x210 JTAG> >0x70 JTAG> >0x50 JTAG> >0x40 JTAG> >0x50 JTAG> >0x80 JTAG> >0x40 JTAG> >0x30 JTAG> >0x40 JTAG> >0x40 JTAG>
 >0x30 JTAG> >0x40 JTAG> >0x50 JTAG>Found Cortex-M3 r1p1, Little endian. -- CPU_ReadMem(4 bytes @ 0xE000EDF0) -- CPU_ReadMem(4 bytes @ 0xE0002000)FPUnit: 6 code (BP) slots and 2 literal slots -- CPU_ReadMem(4 bytes @ 0xE000EDFC) -- CPU_ReadMem(4 bytes @ 0xE0001000) -- CPU_WriteMem(4 bytes @ 0xE0001000) -- CPU_ReadMem(4 bytes @ 0xE000ED88) -- CPU_WriteMem(4 bytes @ 0xE000ED88) -- CPU_ReadMem(4 bytes @ 0xE000ED88) -- CPU_WriteMem(4 bytes @ 0xE000ED88)CoreSight components:ROMTbl 0 @ E00FF000
 -- CPU_ReadMem(16 bytes @ 0xE00FF000) -- CPU_ReadMem(16 bytes @ 0xE000EFF0) -- CPU_ReadMem(16 bytes @ 0xE000EFE0)ROMTbl 0 [0]: FFF0F000, CID: B105E00D, PID: 001BB000 SCS -- CPU_ReadMem(16 bytes @ 0xE0001FF0) -- CPU_ReadMem(16 bytes @ 0xE0001FE0)ROMTbl 0 [1]: FFF02000, CID: B105E00D, PID: 001BB002 DWT -- CPU_ReadMem(16 bytes @ 0xE0002FF0) -- CPU_ReadMem(16 bytes @ 0xE0002FE0)ROMTbl 0 [2]: FFF03000, CID: B105E00D, PID: 000BB003 FPB -- CPU_ReadMem(16 bytes @ 0xE0000FF0)
 -- CPU_ReadMem(16 bytes @ 0xE0000FE0)ROMTbl 0 [3]: FFF01000, CID: B105E00D, PID: 001BB001 ITM -- CPU_ReadMem(16 bytes @ 0xE00FF010) -- CPU_ReadMem(16 bytes @ 0xE0040FF0) -- CPU_ReadMem(16 bytes @ 0xE0040FE0)ROMTbl 0 [4]: FFF41000, CID: B105900D, PID: 001BB923 TPIU-Lite -- CPU_ReadMem(16 bytes @ 0xE0041FF0) -- CPU_ReadMem(16 bytes @ 0xE0041FE0)ROMTbl 0 [5]: FFF42000, CID: B105900D, PID: 101BB924 ETM-M3 ScanLen=9 NumDevices=2 aId[0]=0x3BA00477 aIrRead[0]=0 aScanLen[0]=0 aScanRead[0]=0
 (0077ms, 0649ms total)
T09F8 000:763 JLINK_JTAG_GetDeviceID(DeviceIndex = 0)  returns 0x3BA00477 (0000ms, 0649ms total)
T09F8 000:763 JLINK_JTAG_GetDeviceInfo(DeviceIndex = 0)  returns 0x00 (0000ms, 0649ms total)
T09F8 000:763 JLINK_JTAG_GetDeviceID(DeviceIndex = 1)  returns 0x6414041 (0000ms, 0649ms total)
T09F8 000:763 JLINK_JTAG_GetDeviceInfo(DeviceIndex = 1)  returns 0x00 (0000ms, 0649ms total)
T09F8 000:763 JLINK_GetDLLVersion()  returns 51008 (0000ms, 0649ms total)
T09F8 000:763 JLINK_CORE_GetFound()  returns 0x30000FF (0000ms, 0649ms total)
T09F8 000:763 JLINK_GetDebugInfo(0x100) -- Value=0xE00FF003  returns 0x00 (0000ms, 0649ms total)
T09F8 000:767 JLINK_GetDebugInfo(0x100) -- Value=0xE00FF003  returns 0x00 (0001ms, 0650ms total)
T09F8 000:768 JLINK_GetDebugInfo(0x101) -- Value=0xE0041000  returns 0x00 (0000ms, 0650ms total)
T09F8 000:768 JLINK_GetDebugInfo(0x102) -- Value=0x00000000  returns 0x00 (0000ms, 0650ms total)
T09F8 000:768 JLINK_GetDebugInfo(0x103) -- Value=0xE0040000  returns 0x00 (0000ms, 0650ms total)
T09F8 000:768 JLINK_GetDebugInfo(0x104) -- Value=0xE0000000  returns 0x00 (0000ms, 0650ms total)
T09F8 000:768 JLINK_GetDebugInfo(0x105) -- Value=0xE0001000  returns 0x00 (0000ms, 0650ms total)
T09F8 000:768 JLINK_GetDebugInfo(0x106) -- Value=0xE0002000  returns 0x00 (0000ms, 0650ms total)
T09F8 000:768 JLINK_GetDebugInfo(0x107) -- Value=0xE000E000  returns 0x00 (0000ms, 0650ms total)
T09F8 000:768 JLINK_GetDebugInfo(0x10C) -- Value=0xE000EDF0  returns 0x00 (0000ms, 0650ms total)
T09F8 000:768 JLINK_ReadMemU32(0xE000ED00, 0x0001 Items, ...) -- CPU is running -- CPU_ReadMem(4 bytes @ 0xE000ED00) - Data: 31 C2 1F 41  returns 0x01 (0000ms, 0650ms total)
T09F8 000:768 JLINK_SetResetType(JLINKARM_RESET_TYPE_NORMAL)  returns JLINKARM_RESET_TYPE_NORMAL (0000ms, 0650ms total)
T09F8 000:768 JLINK_Reset() -- CPU is running -- CPU_WriteMem(4 bytes @ 0xE000EDF0) -- CPU is running -- CPU_WriteMem(4 bytes @ 0xE000EDFC) -- CPU is running -- CPU_WriteMem(4 bytes @ 0xE000ED0C) -- CPU is running -- CPU_ReadMem(4 bytes @ 0xE000EDF0) -- CPU is running -- CPU_ReadMem(4 bytes @ 0xE000EDF0) -- CPU is running -- CPU_WriteMem(4 bytes @ 0xE000EDF0) -- CPU is running -- CPU_WriteMem(4 bytes @ 0xE000EDFC) -- CPU is running -- CPU_ReadMem(4 bytes @ 0xE000EDF0) >0x80 JTAG> >0x40 JTAG> >0x30 JTAG>
 >0x40 JTAG> >0x50 JTAG> >0x40 JTAG> -- CPU_WriteMem(4 bytes @ 0xE000EDFC) -- CPU_WriteMem(4 bytes @ 0xE0001028) -- CPU_WriteMem(4 bytes @ 0xE0001038) -- CPU_WriteMem(4 bytes @ 0xE0001048) -- CPU_WriteMem(4 bytes @ 0xE0001058) -- CPU_WriteMem(4 bytes @ 0xE0002000) -- CPU_ReadMem(4 bytes @ 0xE000EDFC) -- CPU_ReadMem(4 bytes @ 0xE0001000) (0020ms, 0670ms total)
T09F8 000:788 JLINK_Halt()  returns 0x00 (0000ms, 0670ms total)
T09F8 000:788 JLINK_IsHalted()  returns TRUE (0000ms, 0670ms total)
T09F8 000:788 JLINK_ReadMemU32(0xE000EDF0, 0x0001 Items, ...) -- CPU_ReadMem(4 bytes @ 0xE000EDF0) - Data: 03 00 03 00  returns 0x01 (0001ms, 0671ms total)
T09F8 000:789 JLINK_WriteU32(0xE000EDF0, 0xA05F0003) -- CPU_WriteMem(4 bytes @ 0xE000EDF0)  returns 0x00 (0000ms, 0671ms total)
T09F8 000:789 JLINK_WriteU32(0xE000EDFC, 0x01000000) -- CPU_WriteMem(4 bytes @ 0xE000EDFC)  returns 0x00 (0000ms, 0671ms total)
T09F8 000:811 JLINK_GetHWStatus(...)  returns 0x00 (0000ms, 0671ms total)
T09F8 000:825 JLINK_GetNumBPUnits(Type = 0xFFFFFF00)  returns 0x06 (0000ms, 0671ms total)
T09F8 000:825 JLINK_GetNumBPUnits(Type = 0xF0)  returns 0x2000 (0000ms, 0671ms total)
T09F8 000:825 JLINK_GetNumWPUnits()  returns 0x04 (0000ms, 0671ms total)
T09F8 000:837 JLINK_GetSpeed()  returns 0x2710 (0000ms, 0671ms total)
T09F8 000:846 JLINK_ReadMemU32(0xE000E004, 0x0001 Items, ...) -- CPU_ReadMem(4 bytes @ 0xE000E004) - Data: 01 00 00 00  returns 0x01 (0000ms, 0671ms total)
T09F8 000:846 JLINK_ReadMemU32(0xE000E004, 0x0001 Items, ...) -- CPU_ReadMem(4 bytes @ 0xE000E004) - Data: 01 00 00 00  returns 0x01 (0001ms, 0672ms total)
T09F8 000:847 JLINK_WriteMem(0xE0001000, 0x001C Bytes, ...) - Data: 01 00 00 00 00 00 00 00 00 00 00 00 00 00 00 00 ... -- CPU_WriteMem(28 bytes @ 0xE0001000)  returns 0x1C (0000ms, 0672ms total)
T09F8 000:847 JLINK_ReadMem (0xE0001000, 0x001C Bytes, ...) -- CPU_ReadMem(28 bytes @ 0xE0001000) - Data: 01 00 00 40 00 00 00 00 00 00 00 00 00 00 00 00 ...  returns 0x00 (0001ms, 0673ms total)
T09F8 000:848 JLINK_Halt()  returns 0x00 (0000ms, 0673ms total)
T09F8 000:848 JLINK_IsHalted()  returns TRUE (0000ms, 0673ms total)
T09F8 000:851 JLINK_WriteMem(0x20000000, 0x0164 Bytes, ...) - Data: 00 BE 0A E0 0D 78 2D 06 68 40 08 24 40 00 00 D3 ... -- CPU_WriteMem(356 bytes @ 0x20000000)  returns 0x164 (0002ms, 0675ms total)
T09F8 000:853 JLINK_WriteReg(R0, 0x08000000)  returns 0x00 (0000ms, 0675ms total)
T09F8 000:853 JLINK_WriteReg(R1, 0x00B71B00)  returns 0x00 (0000ms, 0675ms total)
T09F8 000:853 JLINK_WriteReg(R2, 0x00000001)  returns 0x00 (0000ms, 0675ms total)
T09F8 000:853 JLINK_WriteReg(R3, 0x00000000)  returns 0x00 (0000ms, 0675ms total)
T09F8 000:853 JLINK_WriteReg(R4, 0x00000000)  returns 0x00 (0000ms, 0675ms total)
T09F8 000:853 JLINK_WriteReg(R5, 0x00000000)  returns 0x00 (0000ms, 0675ms total)
T09F8 000:853 JLINK_WriteReg(R6, 0x00000000)  returns 0x00 (0000ms, 0675ms total)
T09F8 000:853 JLINK_WriteReg(R7, 0x00000000)  returns 0x00 (0000ms, 0675ms total)
T09F8 000:853 JLINK_WriteReg(R8, 0x00000000)  returns 0x00 (0000ms, 0675ms total)
T09F8 000:853 JLINK_WriteReg(R9, 0x20000160)  returns 0x00 (0000ms, 0675ms total)
T09F8 000:853 JLINK_WriteReg(R10, 0x00000000)  returns 0x00 (0000ms, 0675ms total)
T09F8 000:853 JLINK_WriteReg(R11, 0x00000000)  returns 0x00 (0000ms, 0675ms total)
T09F8 000:853 JLINK_WriteReg(R12, 0x00000000)  returns 0x00 (0000ms, 0675ms total)
T09F8 000:853 JLINK_WriteReg(R13 (SP), 0x20001000)  returns 0x00 (0000ms, 0675ms total)
T09F8 000:853 JLINK_WriteReg(R14, 0x20000001)  returns 0x00 (0000ms, 0675ms total)
T09F8 000:853 JLINK_WriteReg(R15 (PC), 0x20000038)  returns 0x00 (0000ms, 0675ms total)
T09F8 000:853 JLINK_WriteReg(XPSR, 0x01000000)  returns 0x00 (0000ms, 0675ms total)
T09F8 000:853 JLINK_WriteReg(MSP, 0x20001000)  returns 0x00 (0000ms, 0675ms total)
T09F8 000:853 JLINK_WriteReg(PSP, 0x20001000)  returns 0x00 (0001ms, 0676ms total)
T09F8 000:854 JLINK_WriteReg(CFBP, 0x00000000)  returns 0x00 (0000ms, 0676ms total)
T09F8 000:854 JLINK_SetBPEx(Addr = 0x20000000, Type = 0xFFFFFFF2) -- CPU_ReadMem(2 bytes @ 0x20000000)  returns 0x00000001 (0000ms, 0676ms total)
T09F8 000:854 JLINK_Go() -- CPU_WriteMem(2 bytes @ 0x20000000) -- CPU_ReadMem(4 bytes @ 0xE0001000) -- CPU_WriteMem(4 bytes @ 0xE0002008) -- CPU_WriteMem(4 bytes @ 0xE000200C) -- CPU_WriteMem(4 bytes @ 0xE0002010) -- CPU_WriteMem(4 bytes @ 0xE0002014) -- CPU_WriteMem(4 bytes @ 0xE0002018) -- CPU_WriteMem(4 bytes @ 0xE000201C) -- CPU_WriteMem(4 bytes @ 0xE0001004) (0003ms, 0679ms total)
T09F8 000:857 JLINK_IsHalted() -- CPU_ReadMem(2 bytes @ 0x20000000)  returns TRUE (0002ms, 0681ms total)
T09F8 000:859 JLINK_ReadReg(R15 (PC))  returns 0x20000000 (0000ms, 0679ms total)
T09F8 000:859 JLINK_ClrBPEx(BPHandle = 0x00000001)  returns 0x00 (0000ms, 0679ms total)
T09F8 000:859 JLINK_ReadReg(R0)  returns 0x00000000 (0000ms, 0679ms total)
T09F8 000:860 JLINK_WriteReg(R0, 0x08000000)  returns 0x00 (0000ms, 0679ms total)
T09F8 000:860 JLINK_WriteReg(R1, 0x00B71B00)  returns 0x00 (0000ms, 0679ms total)
T09F8 000:860 JLINK_WriteReg(R2, 0x00000001)  returns 0x00 (0000ms, 0679ms total)
T09F8 000:860 JLINK_WriteReg(R3, 0x00000000)  returns 0x00 (0000ms, 0679ms total)
T09F8 000:860 JLINK_WriteReg(R4, 0x00000000)  returns 0x00 (0000ms, 0679ms total)
T09F8 000:860 JLINK_WriteReg(R5, 0x00000000)  returns 0x00 (0000ms, 0679ms total)
T09F8 000:860 JLINK_WriteReg(R6, 0x00000000)  returns 0x00 (0000ms, 0679ms total)
T09F8 000:860 JLINK_WriteReg(R7, 0x00000000)  returns 0x00 (0000ms, 0679ms total)
T09F8 000:860 JLINK_WriteReg(R8, 0x00000000)  returns 0x00 (0000ms, 0679ms total)
T09F8 000:860 JLINK_WriteReg(R9, 0x20000160)  returns 0x00 (0000ms, 0679ms total)
T09F8 000:860 JLINK_WriteReg(R10, 0x00000000)  returns 0x00 (0000ms, 0679ms total)
T09F8 000:860 JLINK_WriteReg(R11, 0x00000000)  returns 0x00 (0000ms, 0679ms total)
T09F8 000:860 JLINK_WriteReg(R12, 0x00000000)  returns 0x00 (0000ms, 0679ms total)
T09F8 000:860 JLINK_WriteReg(R13 (SP), 0x20001000)  returns 0x00 (0000ms, 0679ms total)
T09F8 000:860 JLINK_WriteReg(R14, 0x20000001)  returns 0x00 (0000ms, 0679ms total)
T09F8 000:860 JLINK_WriteReg(R15 (PC), 0x2000007C)  returns 0x00 (0000ms, 0679ms total)
T09F8 000:860 JLINK_WriteReg(XPSR, 0x01000000)  returns 0x00 (0000ms, 0679ms total)
T09F8 000:860 JLINK_WriteReg(MSP, 0x20001000)  returns 0x00 (0000ms, 0679ms total)
T09F8 000:860 JLINK_WriteReg(PSP, 0x20001000)  returns 0x00 (0000ms, 0679ms total)
T09F8 000:860 JLINK_WriteReg(CFBP, 0x00000000)  returns 0x00 (0000ms, 0679ms total)
T09F8 000:860 JLINK_SetBPEx(Addr = 0x20000000, Type = 0xFFFFFFF2)  returns 0x00000002 (0000ms, 0679ms total)
T09F8 000:860 JLINK_Go() -- CPU_ReadMem(4 bytes @ 0xE0001000) (0001ms, 0680ms total)
T09F8 000:861 JLINK_IsHalted()  returns FALSE (0001ms, 0681ms total)
T09F8 000:961 JLINK_IsHalted() -- CPU_ReadMem(2 bytes @ 0x20000000)  returns TRUE (0002ms, 0682ms total)
T09F8 000:963 JLINK_ReadReg(R15 (PC))  returns 0x20000000 (0000ms, 0680ms total)
T09F8 000:963 JLINK_ClrBPEx(BPHandle = 0x00000002)  returns 0x00 (0000ms, 0680ms total)
T09F8 000:963 JLINK_ReadReg(R0)  returns 0x00000000 (0000ms, 0680ms total)
T09F8 001:015 JLINK_WriteReg(R0, 0x00000001)  returns 0x00 (0000ms, 0680ms total)
T09F8 001:015 JLINK_WriteReg(R1, 0x00B71B00)  returns 0x00 (0000ms, 0680ms total)
T09F8 001:015 JLINK_WriteReg(R2, 0x00000001)  returns 0x00 (0000ms, 0680ms total)
T09F8 001:015 JLINK_WriteReg(R3, 0x00000000)  returns 0x00 (0000ms, 0680ms total)
T09F8 001:015 JLINK_WriteReg(R4, 0x00000000)  returns 0x00 (0000ms, 0680ms total)
T09F8 001:015 JLINK_WriteReg(R5, 0x00000000)  returns 0x00 (0000ms, 0680ms total)
T09F8 001:015 JLINK_WriteReg(R6, 0x00000000)  returns 0x00 (0000ms, 0680ms total)
T09F8 001:015 JLINK_WriteReg(R7, 0x00000000)  returns 0x00 (0000ms, 0680ms total)
T09F8 001:015 JLINK_WriteReg(R8, 0x00000000)  returns 0x00 (0000ms, 0680ms total)
T09F8 001:015 JLINK_WriteReg(R9, 0x20000160)  returns 0x00 (0000ms, 0680ms total)
T09F8 001:015 JLINK_WriteReg(R10, 0x00000000)  returns 0x00 (0000ms, 0680ms total)
T09F8 001:015 JLINK_WriteReg(R11, 0x00000000)  returns 0x00 (0000ms, 0680ms total)
T09F8 001:015 JLINK_WriteReg(R12, 0x00000000)  returns 0x00 (0000ms, 0680ms total)
T09F8 001:015 JLINK_WriteReg(R13 (SP), 0x20001000)  returns 0x00 (0000ms, 0680ms total)
T09F8 001:015 JLINK_WriteReg(R14, 0x20000001)  returns 0x00 (0000ms, 0680ms total)
T09F8 001:015 JLINK_WriteReg(R15 (PC), 0x2000006A)  returns 0x00 (0000ms, 0680ms total)
T09F8 001:015 JLINK_WriteReg(XPSR, 0x01000000)  returns 0x00 (0000ms, 0680ms total)
T09F8 001:015 JLINK_WriteReg(MSP, 0x20001000)  returns 0x00 (0000ms, 0680ms total)
T09F8 001:015 JLINK_WriteReg(PSP, 0x20001000)  returns 0x00 (0000ms, 0680ms total)
T09F8 001:015 JLINK_WriteReg(CFBP, 0x00000000)  returns 0x00 (0000ms, 0680ms total)
T09F8 001:015 JLINK_SetBPEx(Addr = 0x20000000, Type = 0xFFFFFFF2)  returns 0x00000003 (0000ms, 0680ms total)
T09F8 001:015 JLINK_Go() -- CPU_ReadMem(4 bytes @ 0xE0001000) (0001ms, 0681ms total)
T09F8 001:016 JLINK_IsHalted() -- CPU_ReadMem(2 bytes @ 0x20000000)  returns TRUE (0002ms, 0683ms total)
T09F8 001:018 JLINK_ReadReg(R15 (PC))  returns 0x20000000 (0000ms, 0681ms total)
T09F8 001:018 JLINK_ClrBPEx(BPHandle = 0x00000003)  returns 0x00 (0000ms, 0681ms total)
T09F8 001:018 JLINK_ReadReg(R0)  returns 0x00000000 (0000ms, 0681ms total)
T09F8 001:029 JLINK_WriteMem(0x20000000, 0x0164 Bytes, ...) - Data: 00 BE 0A E0 0D 78 2D 06 68 40 08 24 40 00 00 D3 ... -- CPU_WriteMem(356 bytes @ 0x20000000)  returns 0x164 (0001ms, 0682ms total)
T09F8 001:030 JLINK_WriteReg(R0, 0x08000000)  returns 0x00 (0000ms, 0682ms total)
T09F8 001:030 JLINK_WriteReg(R1, 0x00B71B00)  returns 0x00 (0000ms, 0682ms total)
T09F8 001:030 JLINK_WriteReg(R2, 0x00000002)  returns 0x00 (0000ms, 0682ms total)
T09F8 001:030 JLINK_WriteReg(R3, 0x00000000)  returns 0x00 (0000ms, 0682ms total)
T09F8 001:030 JLINK_WriteReg(R4, 0x00000000)  returns 0x00 (0000ms, 0682ms total)
T09F8 001:030 JLINK_WriteReg(R5, 0x00000000)  returns 0x00 (0000ms, 0682ms total)
T09F8 001:030 JLINK_WriteReg(R6, 0x00000000)  returns 0x00 (0000ms, 0682ms total)
T09F8 001:030 JLINK_WriteReg(R7, 0x00000000)  returns 0x00 (0001ms, 0683ms total)
T09F8 001:031 JLINK_WriteReg(R8, 0x00000000)  returns 0x00 (0000ms, 0683ms total)
T09F8 001:031 JLINK_WriteReg(R9, 0x20000160)  returns 0x00 (0000ms, 0683ms total)
T09F8 001:031 JLINK_WriteReg(R10, 0x00000000)  returns 0x00 (0000ms, 0683ms total)
T09F8 001:031 JLINK_WriteReg(R11, 0x00000000)  returns 0x00 (0000ms, 0683ms total)
T09F8 001:031 JLINK_WriteReg(R12, 0x00000000)  returns 0x00 (0000ms, 0683ms total)
T09F8 001:031 JLINK_WriteReg(R13 (SP), 0x20001000)  returns 0x00 (0000ms, 0683ms total)
T09F8 001:031 JLINK_WriteReg(R14, 0x20000001)  returns 0x00 (0000ms, 0683ms total)
T09F8 001:031 JLINK_WriteReg(R15 (PC), 0x20000038)  returns 0x00 (0000ms, 0683ms total)
T09F8 001:031 JLINK_WriteReg(XPSR, 0x01000000)  returns 0x00 (0000ms, 0683ms total)
T09F8 001:031 JLINK_WriteReg(MSP, 0x20001000)  returns 0x00 (0000ms, 0683ms total)
T09F8 001:031 JLINK_WriteReg(PSP, 0x20001000)  returns 0x00 (0000ms, 0683ms total)
T09F8 001:031 JLINK_WriteReg(CFBP, 0x00000000)  returns 0x00 (0000ms, 0683ms total)
T09F8 001:031 JLINK_SetBPEx(Addr = 0x20000000, Type = 0xFFFFFFF2) -- CPU_ReadMem(2 bytes @ 0x20000000)  returns 0x00000004 (0000ms, 0683ms total)
T09F8 001:031 JLINK_Go() -- CPU_WriteMem(2 bytes @ 0x20000000) -- CPU_ReadMem(4 bytes @ 0xE0001000) (0001ms, 0684ms total)
T09F8 001:032 JLINK_IsHalted() -- CPU_ReadMem(2 bytes @ 0x20000000)  returns TRUE (0002ms, 0686ms total)
T09F8 001:034 JLINK_ReadReg(R15 (PC))  returns 0x20000000 (0000ms, 0684ms total)
T09F8 001:034 JLINK_ClrBPEx(BPHandle = 0x00000004)  returns 0x00 (0000ms, 0684ms total)
T09F8 001:034 JLINK_ReadReg(R0)  returns 0x00000000 (0000ms, 0684ms total)
T09F8 001:034 JLINK_WriteMem(0x20000164, 0x0400 Bytes, ...) - Data: B8 FA 00 20 69 37 00 08 B7 02 00 08 B9 02 00 08 ... -- CPU_WriteMem(1024 bytes @ 0x20000164)  returns 0x400 (0003ms, 0687ms total)
T09F8 001:037 JLINK_WriteReg(R0, 0x08000000)  returns 0x00 (0000ms, 0687ms total)
T09F8 001:037 JLINK_WriteReg(R1, 0x00000400)  returns 0x00 (0000ms, 0687ms total)
T09F8 001:037 JLINK_WriteReg(R2, 0x20000164)  returns 0x00 (0000ms, 0687ms total)
T09F8 001:037 JLINK_WriteReg(R3, 0x00000000)  returns 0x00 (0000ms, 0687ms total)
T09F8 001:037 JLINK_WriteReg(R4, 0x00000000)  returns 0x00 (0000ms, 0687ms total)
T09F8 001:037 JLINK_WriteReg(R5, 0x00000000)  returns 0x00 (0000ms, 0687ms total)
T09F8 001:037 JLINK_WriteReg(R6, 0x00000000)  returns 0x00 (0000ms, 0687ms total)
T09F8 001:037 JLINK_WriteReg(R7, 0x00000000)  returns 0x00 (0000ms, 0687ms total)
T09F8 001:037 JLINK_WriteReg(R8, 0x00000000)  returns 0x00 (0000ms, 0687ms total)
T09F8 001:037 JLINK_WriteReg(R9, 0x20000160)  returns 0x00 (0000ms, 0687ms total)
T09F8 001:037 JLINK_WriteReg(R10, 0x00000000)  returns 0x00 (0000ms, 0687ms total)
T09F8 001:037 JLINK_WriteReg(R11, 0x00000000)  returns 0x00 (0000ms, 0687ms total)
T09F8 001:037 JLINK_WriteReg(R12, 0x00000000)  returns 0x00 (0000ms, 0687ms total)
T09F8 001:037 JLINK_WriteReg(R13 (SP), 0x20001000)  returns 0x00 (0000ms, 0687ms total)
T09F8 001:037 JLINK_WriteReg(R14, 0x20000001)  returns 0x00 (0000ms, 0687ms total)
T09F8 001:037 JLINK_WriteReg(R15 (PC), 0x200000F4)  returns 0x00 (0000ms, 0687ms total)
T09F8 001:037 JLINK_WriteReg(XPSR, 0x01000000)  returns 0x00 (0000ms, 0687ms total)
T09F8 001:037 JLINK_WriteReg(MSP, 0x20001000)  returns 0x00 (0000ms, 0687ms total)
T09F8 001:037 JLINK_WriteReg(PSP, 0x20001000)  returns 0x00 (0000ms, 0687ms total)
T09F8 001:037 JLINK_WriteReg(CFBP, 0x00000000)  returns 0x00 (0000ms, 0687ms total)
T09F8 001:037 JLINK_SetBPEx(Addr = 0x20000000, Type = 0xFFFFFFF2)  returns 0x00000005 (0000ms, 0687ms total)
T09F8 001:037 JLINK_Go() -- CPU_ReadMem(4 bytes @ 0xE0001000) (0001ms, 0688ms total)
T09F8 001:038 JLINK_IsHalted()  returns FALSE (0000ms, 0688ms total)
T09F8 001:099 JLINK_IsHalted() -- CPU_ReadMem(2 bytes @ 0x20000000)  returns TRUE (0001ms, 0689ms total)
T09F8 001:100 JLINK_ReadReg(R15 (PC))  returns 0x20000000 (0000ms, 0688ms total)
T09F8 001:100 JLINK_ClrBPEx(BPHandle = 0x00000005)  returns 0x00 (0000ms, 0688ms total)
T09F8 001:100 JLINK_ReadReg(R0)  returns 0x00000000 (0000ms, 0688ms total)
T09F8 001:101 JLINK_WriteMem(0x20000164, 0x0400 Bytes, ...) - Data: 21 4B 5B 68 03 F0 0C 01 21 B1 04 29 06 D0 08 29 ... -- CPU_WriteMem(1024 bytes @ 0x20000164)  returns 0x400 (0002ms, 0690ms total)
T09F8 001:103 JLINK_WriteReg(R0, 0x08000400)  returns 0x00 (0000ms, 0690ms total)
T09F8 001:103 JLINK_WriteReg(R1, 0x00000400)  returns 0x00 (0000ms, 0690ms total)
T09F8 001:103 JLINK_WriteReg(R2, 0x20000164)  returns 0x00 (0000ms, 0690ms total)
T09F8 001:103 JLINK_WriteReg(R3, 0x00000000)  returns 0x00 (0000ms, 0690ms total)
T09F8 001:103 JLINK_WriteReg(R4, 0x00000000)  returns 0x00 (0000ms, 0690ms total)
T09F8 001:103 JLINK_WriteReg(R5, 0x00000000)  returns 0x00 (0000ms, 0690ms total)
T09F8 001:103 JLINK_WriteReg(R6, 0x00000000)  returns 0x00 (0000ms, 0690ms total)
T09F8 001:103 JLINK_WriteReg(R7, 0x00000000)  returns 0x00 (0000ms, 0690ms total)
T09F8 001:103 JLINK_WriteReg(R8, 0x00000000)  returns 0x00 (0000ms, 0690ms total)
T09F8 001:103 JLINK_WriteReg(R9, 0x20000160)  returns 0x00 (0000ms, 0690ms total)
T09F8 001:103 JLINK_WriteReg(R10, 0x00000000)  returns 0x00 (0000ms, 0690ms total)
T09F8 001:103 JLINK_WriteReg(R11, 0x00000000)  returns 0x00 (0001ms, 0691ms total)
T09F8 001:104 JLINK_WriteReg(R12, 0x00000000)  returns 0x00 (0000ms, 0691ms total)
T09F8 001:104 JLINK_WriteReg(R13 (SP), 0x20001000)  returns 0x00 (0000ms, 0691ms total)
T09F8 001:104 JLINK_WriteReg(R14, 0x20000001)  returns 0x00 (0000ms, 0691ms total)
T09F8 001:104 JLINK_WriteReg(R15 (PC), 0x200000F4)  returns 0x00 (0000ms, 0691ms total)
T09F8 001:104 JLINK_WriteReg(XPSR, 0x01000000)  returns 0x00 (0000ms, 0691ms total)
T09F8 001:104 JLINK_WriteReg(MSP, 0x20001000)  returns 0x00 (0000ms, 0691ms total)
T09F8 001:104 JLINK_WriteReg(PSP, 0x20001000)  returns 0x00 (0000ms, 0691ms total)
T09F8 001:104 JLINK_WriteReg(CFBP, 0x00000000)  returns 0x00 (0000ms, 0691ms total)
T09F8 001:104 JLINK_SetBPEx(Addr = 0x20000000, Type = 0xFFFFFFF2)  returns 0x00000006 (0000ms, 0691ms total)
T09F8 001:104 JLINK_Go() -- CPU_ReadMem(4 bytes @ 0xE0001000) (0001ms, 0692ms total)
T09F8 001:105 JLINK_IsHalted()  returns FALSE (0000ms, 0692ms total)
T09F8 001:107 JLINK_IsHalted()  returns FALSE (0000ms, 0692ms total)
T09F8 001:109 JLINK_IsHalted()  returns FALSE (0000ms, 0692ms total)
T09F8 001:111 JLINK_IsHalted()  returns FALSE (0000ms, 0692ms total)
T09F8 001:113 JLINK_IsHalted()  returns FALSE (0000ms, 0692ms total)
T09F8 001:115 JLINK_IsHalted()  returns FALSE (0000ms, 0692ms total)
T09F8 001:117 JLINK_IsHalted()  returns FALSE (0000ms, 0692ms total)
T09F8 001:119 JLINK_IsHalted()  returns FALSE (0000ms, 0692ms total)
T09F8 001:121 JLINK_IsHalted()  returns FALSE (0000ms, 0692ms total)
T09F8 001:123 JLINK_IsHalted()  returns FALSE (0000ms, 0692ms total)
T09F8 001:125 JLINK_IsHalted()  returns FALSE (0000ms, 0692ms total)
T09F8 001:173 JLINK_IsHalted() -- CPU_ReadMem(2 bytes @ 0x20000000)  returns TRUE (0001ms, 0693ms total)
T09F8 001:175 JLINK_ReadReg(R15 (PC))  returns 0x20000000 (0000ms, 0692ms total)
T09F8 001:175 JLINK_ClrBPEx(BPHandle = 0x00000006)  returns 0x00 (0000ms, 0692ms total)
T09F8 001:175 JLINK_ReadReg(R0)  returns 0x00000000 (0000ms, 0692ms total)
T09F8 001:175 JLINK_WriteMem(0x20000164, 0x0400 Bytes, ...) - Data: 20 46 05 F0 83 F8 00 BF 06 E0 00 BF 00 BF 20 46 ... -- CPU_WriteMem(1024 bytes @ 0x20000164)  returns 0x400 (0003ms, 0695ms total)
T09F8 001:178 JLINK_WriteReg(R0, 0x08000800)  returns 0x00 (0000ms, 0695ms total)
T09F8 001:178 JLINK_WriteReg(R1, 0x00000400)  returns 0x00 (0000ms, 0695ms total)
T09F8 001:178 JLINK_WriteReg(R2, 0x20000164)  returns 0x00 (0000ms, 0695ms total)
T09F8 001:178 JLINK_WriteReg(R3, 0x00000000)  returns 0x00 (0000ms, 0695ms total)
T09F8 001:178 JLINK_WriteReg(R4, 0x00000000)  returns 0x00 (0000ms, 0695ms total)
T09F8 001:178 JLINK_WriteReg(R5, 0x00000000)  returns 0x00 (0000ms, 0695ms total)
T09F8 001:178 JLINK_WriteReg(R6, 0x00000000)  returns 0x00 (0000ms, 0695ms total)
T09F8 001:178 JLINK_WriteReg(R7, 0x00000000)  returns 0x00 (0000ms, 0695ms total)
T09F8 001:178 JLINK_WriteReg(R8, 0x00000000)  returns 0x00 (0000ms, 0695ms total)
T09F8 001:178 JLINK_WriteReg(R9, 0x20000160)  returns 0x00 (0000ms, 0695ms total)
T09F8 001:178 JLINK_WriteReg(R10, 0x00000000)  returns 0x00 (0000ms, 0695ms total)
T09F8 001:178 JLINK_WriteReg(R11, 0x00000000)  returns 0x00 (0000ms, 0695ms total)
T09F8 001:178 JLINK_WriteReg(R12, 0x00000000)  returns 0x00 (0000ms, 0695ms total)
T09F8 001:178 JLINK_WriteReg(R13 (SP), 0x20001000)  returns 0x00 (0000ms, 0695ms total)
T09F8 001:178 JLINK_WriteReg(R14, 0x20000001)  returns 0x00 (0000ms, 0695ms total)
T09F8 001:178 JLINK_WriteReg(R15 (PC), 0x200000F4)  returns 0x00 (0000ms, 0695ms total)
T09F8 001:178 JLINK_WriteReg(XPSR, 0x01000000)  returns 0x00 (0000ms, 0695ms total)
T09F8 001:178 JLINK_WriteReg(MSP, 0x20001000)  returns 0x00 (0000ms, 0695ms total)
T09F8 001:178 JLINK_WriteReg(PSP, 0x20001000)  returns 0x00 (0000ms, 0695ms total)
T09F8 001:178 JLINK_WriteReg(CFBP, 0x00000000)  returns 0x00 (0000ms, 0695ms total)
T09F8 001:178 JLINK_SetBPEx(Addr = 0x20000000, Type = 0xFFFFFFF2)  returns 0x00000007 (0000ms, 0695ms total)
T09F8 001:178 JLINK_Go() -- CPU_ReadMem(4 bytes @ 0xE0001000) (0001ms, 0696ms total)
T09F8 001:179 JLINK_IsHalted()  returns FALSE (0001ms, 0697ms total)
T09F8 001:182 JLINK_IsHalted()  returns FALSE (0000ms, 0696ms total)
T09F8 001:184 JLINK_IsHalted()  returns FALSE (0000ms, 0696ms total)
T09F8 001:186 JLINK_IsHalted()  returns FALSE (0000ms, 0696ms total)
T09F8 001:188 JLINK_IsHalted()  returns FALSE (0000ms, 0696ms total)
T09F8 001:190 JLINK_IsHalted()  returns FALSE (0000ms, 0696ms total)
T09F8 001:192 JLINK_IsHalted()  returns FALSE (0000ms, 0696ms total)
T09F8 001:194 JLINK_IsHalted()  returns FALSE (0000ms, 0696ms total)
T09F8 001:196 JLINK_IsHalted()  returns FALSE (0000ms, 0696ms total)
T09F8 001:198 JLINK_IsHalted()  returns FALSE (0000ms, 0696ms total)
T09F8 001:200 JLINK_IsHalted()  returns FALSE (0000ms, 0696ms total)
T09F8 001:202 JLINK_IsHalted()  returns FALSE (0000ms, 0696ms total)
T09F8 001:204 JLINK_IsHalted()  returns FALSE (0000ms, 0696ms total)
T09F8 001:206 JLINK_IsHalted()  returns FALSE (0000ms, 0696ms total)
T09F8 001:208 JLINK_IsHalted()  returns FALSE (0000ms, 0696ms total)
T09F8 001:210 JLINK_IsHalted()  returns FALSE (0000ms, 0696ms total)
T09F8 001:211 JLINK_IsHalted() -- CPU_ReadMem(2 bytes @ 0x20000000)  returns TRUE (0002ms, 0698ms total)
T09F8 001:213 JLINK_ReadReg(R15 (PC))  returns 0x20000000 (0000ms, 0696ms total)
T09F8 001:213 JLINK_ClrBPEx(BPHandle = 0x00000007)  returns 0x00 (0000ms, 0696ms total)
T09F8 001:213 JLINK_ReadReg(R0)  returns 0x00000000 (0000ms, 0696ms total)
T09F8 001:214 JLINK_WriteMem(0x20000164, 0x0400 Bytes, ...) - Data: 01 00 1B 49 10 39 08 80 06 F0 BD FB 10 BD 7F B5 ... -- CPU_WriteMem(1024 bytes @ 0x20000164)  returns 0x400 (0003ms, 0699ms total)
T09F8 001:217 JLINK_WriteReg(R0, 0x08000C00)  returns 0x00 (0000ms, 0699ms total)
T09F8 001:217 JLINK_WriteReg(R1, 0x00000400)  returns 0x00 (0000ms, 0699ms total)
T09F8 001:217 JLINK_WriteReg(R2, 0x20000164)  returns 0x00 (0000ms, 0699ms total)
T09F8 001:217 JLINK_WriteReg(R3, 0x00000000)  returns 0x00 (0000ms, 0699ms total)
T09F8 001:217 JLINK_WriteReg(R4, 0x00000000)  returns 0x00 (0000ms, 0699ms total)
T09F8 001:217 JLINK_WriteReg(R5, 0x00000000)  returns 0x00 (0000ms, 0699ms total)
T09F8 001:217 JLINK_WriteReg(R6, 0x00000000)  returns 0x00 (0000ms, 0699ms total)
T09F8 001:217 JLINK_WriteReg(R7, 0x00000000)  returns 0x00 (0000ms, 0699ms total)
T09F8 001:217 JLINK_WriteReg(R8, 0x00000000)  returns 0x00 (0000ms, 0699ms total)
T09F8 001:217 JLINK_WriteReg(R9, 0x20000160)  returns 0x00 (0000ms, 0699ms total)
T09F8 001:217 JLINK_WriteReg(R10, 0x00000000)  returns 0x00 (0000ms, 0699ms total)
T09F8 001:217 JLINK_WriteReg(R11, 0x00000000)  returns 0x00 (0000ms, 0699ms total)
T09F8 001:217 JLINK_WriteReg(R12, 0x00000000)  returns 0x00 (0000ms, 0699ms total)
T09F8 001:217 JLINK_WriteReg(R13 (SP), 0x20001000)  returns 0x00 (0000ms, 0699ms total)
T09F8 001:217 JLINK_WriteReg(R14, 0x20000001)  returns 0x00 (0000ms, 0699ms total)
T09F8 001:217 JLINK_WriteReg(R15 (PC), 0x200000F4)  returns 0x00 (0000ms, 0699ms total)
T09F8 001:217 JLINK_WriteReg(XPSR, 0x01000000)  returns 0x00 (0000ms, 0699ms total)
T09F8 001:217 JLINK_WriteReg(MSP, 0x20001000)  returns 0x00 (0000ms, 0699ms total)
T09F8 001:217 JLINK_WriteReg(PSP, 0x20001000)  returns 0x00 (0000ms, 0699ms total)
T09F8 001:217 JLINK_WriteReg(CFBP, 0x00000000)  returns 0x00 (0000ms, 0699ms total)
T09F8 001:217 JLINK_SetBPEx(Addr = 0x20000000, Type = 0xFFFFFFF2)  returns 0x00000008 (0000ms, 0699ms total)
T09F8 001:217 JLINK_Go() -- CPU_ReadMem(4 bytes @ 0xE0001000) (0001ms, 0700ms total)
T09F8 001:218 JLINK_IsHalted()  returns FALSE (0001ms, 0701ms total)
T09F8 001:221 JLINK_IsHalted()  returns FALSE (0000ms, 0700ms total)
T09F8 001:223 JLINK_IsHalted()  returns FALSE (0000ms, 0700ms total)
T09F8 001:225 JLINK_IsHalted()  returns FALSE (0000ms, 0700ms total)
T09F8 001:227 JLINK_IsHalted()  returns FALSE (0000ms, 0700ms total)
T09F8 001:229 JLINK_IsHalted()  returns FALSE (0000ms, 0700ms total)
T09F8 001:231 JLINK_IsHalted()  returns FALSE (0000ms, 0700ms total)
T09F8 001:233 JLINK_IsHalted()  returns FALSE (0000ms, 0700ms total)
T09F8 001:235 JLINK_IsHalted()  returns FALSE (0000ms, 0700ms total)
T09F8 001:286 JLINK_IsHalted() -- CPU_ReadMem(2 bytes @ 0x20000000)  returns TRUE (0001ms, 0701ms total)
T09F8 001:287 JLINK_ReadReg(R15 (PC))  returns 0x20000000 (0000ms, 0700ms total)
T09F8 001:287 JLINK_ClrBPEx(BPHandle = 0x00000008)  returns 0x00 (0000ms, 0700ms total)
T09F8 001:287 JLINK_ReadReg(R0)  returns 0x00000000 (0000ms, 0700ms total)
T09F8 001:288 JLINK_WriteMem(0x20000164, 0x0400 Bytes, ...) - Data: 00 99 40 EA 11 60 68 60 01 98 00 06 01 99 01 F4 ... -- CPU_WriteMem(1024 bytes @ 0x20000164)  returns 0x400 (0002ms, 0702ms total)
T09F8 001:290 JLINK_WriteReg(R0, 0x08001000)  returns 0x00 (0000ms, 0702ms total)
T09F8 001:290 JLINK_WriteReg(R1, 0x00000400)  returns 0x00 (0000ms, 0702ms total)
T09F8 001:290 JLINK_WriteReg(R2, 0x20000164)  returns 0x00 (0000ms, 0702ms total)
T09F8 001:290 JLINK_WriteReg(R3, 0x00000000)  returns 0x00 (0000ms, 0702ms total)
T09F8 001:290 JLINK_WriteReg(R4, 0x00000000)  returns 0x00 (0000ms, 0702ms total)
T09F8 001:290 JLINK_WriteReg(R5, 0x00000000)  returns 0x00 (0000ms, 0702ms total)
T09F8 001:290 JLINK_WriteReg(R6, 0x00000000)  returns 0x00 (0000ms, 0702ms total)
T09F8 001:290 JLINK_WriteReg(R7, 0x00000000)  returns 0x00 (0000ms, 0702ms total)
T09F8 001:290 JLINK_WriteReg(R8, 0x00000000)  returns 0x00 (0000ms, 0702ms total)
T09F8 001:290 JLINK_WriteReg(R9, 0x20000160)  returns 0x00 (0000ms, 0702ms total)
T09F8 001:290 JLINK_WriteReg(R10, 0x00000000)  returns 0x00 (0000ms, 0702ms total)
T09F8 001:290 JLINK_WriteReg(R11, 0x00000000)  returns 0x00 (0000ms, 0702ms total)
T09F8 001:290 JLINK_WriteReg(R12, 0x00000000)  returns 0x00 (0000ms, 0702ms total)
T09F8 001:290 JLINK_WriteReg(R13 (SP), 0x20001000)  returns 0x00 (0000ms, 0702ms total)
T09F8 001:290 JLINK_WriteReg(R14, 0x20000001)  returns 0x00 (0000ms, 0702ms total)
T09F8 001:290 JLINK_WriteReg(R15 (PC), 0x200000F4)  returns 0x00 (0000ms, 0702ms total)
T09F8 001:290 JLINK_WriteReg(XPSR, 0x01000000)  returns 0x00 (0000ms, 0702ms total)
T09F8 001:290 JLINK_WriteReg(MSP, 0x20001000)  returns 0x00 (0000ms, 0702ms total)
T09F8 001:290 JLINK_WriteReg(PSP, 0x20001000)  returns 0x00 (0000ms, 0702ms total)
T09F8 001:290 JLINK_WriteReg(CFBP, 0x00000000)  returns 0x00 (0000ms, 0702ms total)
T09F8 001:290 JLINK_SetBPEx(Addr = 0x20000000, Type = 0xFFFFFFF2)  returns 0x00000009 (0000ms, 0702ms total)
T09F8 001:290 JLINK_Go() -- CPU_ReadMem(4 bytes @ 0xE0001000) (0002ms, 0704ms total)
T09F8 001:292 JLINK_IsHalted()  returns FALSE (0000ms, 0704ms total)
T09F8 001:294 JLINK_IsHalted()  returns FALSE (0000ms, 0704ms total)
T09F8 001:296 JLINK_IsHalted()  returns FALSE (0000ms, 0704ms total)
T09F8 001:298 JLINK_IsHalted()  returns FALSE (0000ms, 0704ms total)
T09F8 001:300 JLINK_IsHalted()  returns FALSE (0000ms, 0704ms total)
T09F8 001:302 JLINK_IsHalted()  returns FALSE (0000ms, 0704ms total)
T09F8 001:304 JLINK_IsHalted()  returns FALSE (0000ms, 0704ms total)
T09F8 001:306 JLINK_IsHalted()  returns FALSE (0000ms, 0704ms total)
T09F8 001:308 JLINK_IsHalted()  returns FALSE (0000ms, 0704ms total)
T09F8 001:310 JLINK_IsHalted()  returns FALSE (0000ms, 0704ms total)
T09F8 001:312 JLINK_IsHalted()  returns FALSE (0000ms, 0704ms total)
T09F8 001:314 JLINK_IsHalted()  returns FALSE (0000ms, 0704ms total)
T09F8 001:316 JLINK_IsHalted()  returns FALSE (0000ms, 0704ms total)
T09F8 001:318 JLINK_IsHalted()  returns FALSE (0000ms, 0704ms total)
T09F8 001:320 JLINK_IsHalted()  returns FALSE (0000ms, 0704ms total)
T09F8 001:322 JLINK_IsHalted()  returns FALSE (0000ms, 0704ms total)
T09F8 001:324 JLINK_IsHalted() -- CPU_ReadMem(2 bytes @ 0x20000000)  returns TRUE (0001ms, 0705ms total)
T09F8 001:325 JLINK_ReadReg(R15 (PC))  returns 0x20000000 (0000ms, 0704ms total)
T09F8 001:325 JLINK_ClrBPEx(BPHandle = 0x00000009)  returns 0x00 (0000ms, 0704ms total)
T09F8 001:325 JLINK_ReadReg(R0)  returns 0x00000000 (0000ms, 0704ms total)
T09F8 001:326 JLINK_WriteMem(0x20000164, 0x0400 Bytes, ...) - Data: 1A 0E 35 23 5A 54 8C 4B 9B 68 C3 F3 07 42 14 06 ... -- CPU_WriteMem(1024 bytes @ 0x20000164)  returns 0x400 (0002ms, 0706ms total)
T09F8 001:328 JLINK_WriteReg(R0, 0x08001400)  returns 0x00 (0000ms, 0706ms total)
T09F8 001:328 JLINK_WriteReg(R1, 0x00000400)  returns 0x00 (0000ms, 0706ms total)
T09F8 001:328 JLINK_WriteReg(R2, 0x20000164)  returns 0x00 (0000ms, 0706ms total)
T09F8 001:328 JLINK_WriteReg(R3, 0x00000000)  returns 0x00 (0000ms, 0706ms total)
T09F8 001:328 JLINK_WriteReg(R4, 0x00000000)  returns 0x00 (0000ms, 0706ms total)
T09F8 001:328 JLINK_WriteReg(R5, 0x00000000)  returns 0x00 (0000ms, 0706ms total)
T09F8 001:328 JLINK_WriteReg(R6, 0x00000000)  returns 0x00 (0000ms, 0706ms total)
T09F8 001:328 JLINK_WriteReg(R7, 0x00000000)  returns 0x00 (0000ms, 0706ms total)
T09F8 001:328 JLINK_WriteReg(R8, 0x00000000)  returns 0x00 (0000ms, 0706ms total)
T09F8 001:328 JLINK_WriteReg(R9, 0x20000160)  returns 0x00 (0000ms, 0706ms total)
T09F8 001:328 JLINK_WriteReg(R10, 0x00000000)  returns 0x00 (0000ms, 0706ms total)
T09F8 001:328 JLINK_WriteReg(R11, 0x00000000)  returns 0x00 (0000ms, 0706ms total)
T09F8 001:328 JLINK_WriteReg(R12, 0x00000000)  returns 0x00 (0000ms, 0706ms total)
T09F8 001:328 JLINK_WriteReg(R13 (SP), 0x20001000)  returns 0x00 (0000ms, 0706ms total)
T09F8 001:328 JLINK_WriteReg(R14, 0x20000001)  returns 0x00 (0000ms, 0706ms total)
T09F8 001:328 JLINK_WriteReg(R15 (PC), 0x200000F4)  returns 0x00 (0000ms, 0706ms total)
T09F8 001:328 JLINK_WriteReg(XPSR, 0x01000000)  returns 0x00 (0000ms, 0706ms total)
T09F8 001:328 JLINK_WriteReg(MSP, 0x20001000)  returns 0x00 (0000ms, 0706ms total)
T09F8 001:329 JLINK_WriteReg(PSP, 0x20001000)  returns 0x00 (0000ms, 0706ms total)
T09F8 001:329 JLINK_WriteReg(CFBP, 0x00000000)  returns 0x00 (0000ms, 0706ms total)
T09F8 001:329 JLINK_SetBPEx(Addr = 0x20000000, Type = 0xFFFFFFF2)  returns 0x0000000A (0000ms, 0706ms total)
T09F8 001:329 JLINK_Go() -- CPU_ReadMem(4 bytes @ 0xE0001000) (0001ms, 0707ms total)
T09F8 001:330 JLINK_IsHalted()  returns FALSE (0000ms, 0707ms total)
T09F8 001:332 JLINK_IsHalted()  returns FALSE (0000ms, 0707ms total)
T09F8 001:334 JLINK_IsHalted()  returns FALSE (0000ms, 0707ms total)
T09F8 001:336 JLINK_IsHalted()  returns FALSE (0000ms, 0707ms total)
T09F8 001:339 JLINK_IsHalted()  returns FALSE (0000ms, 0707ms total)
T09F8 001:341 JLINK_IsHalted()  returns FALSE (0000ms, 0707ms total)
T09F8 001:343 JLINK_IsHalted()  returns FALSE (0000ms, 0707ms total)
T09F8 001:397 JLINK_IsHalted() -- CPU_ReadMem(2 bytes @ 0x20000000)  returns TRUE (0002ms, 0709ms total)
T09F8 001:399 JLINK_ReadReg(R15 (PC))  returns 0x20000000 (0000ms, 0707ms total)
T09F8 001:399 JLINK_ClrBPEx(BPHandle = 0x0000000A)  returns 0x00 (0000ms, 0707ms total)
T09F8 001:399 JLINK_ReadReg(R0)  returns 0x00000000 (0000ms, 0707ms total)
T09F8 001:399 JLINK_WriteMem(0x20000164, 0x0400 Bytes, ...) - Data: 03 F0 20 FD 37 20 FF F7 23 FB 04 46 00 2C 4B D1 ... -- CPU_WriteMem(1024 bytes @ 0x20000164)  returns 0x400 (0003ms, 0710ms total)
T09F8 001:402 JLINK_WriteReg(R0, 0x08001800)  returns 0x00 (0000ms, 0710ms total)
T09F8 001:402 JLINK_WriteReg(R1, 0x00000400)  returns 0x00 (0000ms, 0710ms total)
T09F8 001:402 JLINK_WriteReg(R2, 0x20000164)  returns 0x00 (0000ms, 0710ms total)
T09F8 001:402 JLINK_WriteReg(R3, 0x00000000)  returns 0x00 (0000ms, 0710ms total)
T09F8 001:402 JLINK_WriteReg(R4, 0x00000000)  returns 0x00 (0000ms, 0710ms total)
T09F8 001:402 JLINK_WriteReg(R5, 0x00000000)  returns 0x00 (0000ms, 0710ms total)
T09F8 001:402 JLINK_WriteReg(R6, 0x00000000)  returns 0x00 (0000ms, 0710ms total)
T09F8 001:402 JLINK_WriteReg(R7, 0x00000000)  returns 0x00 (0000ms, 0710ms total)
T09F8 001:402 JLINK_WriteReg(R8, 0x00000000)  returns 0x00 (0000ms, 0710ms total)
T09F8 001:402 JLINK_WriteReg(R9, 0x20000160)  returns 0x00 (0000ms, 0710ms total)
T09F8 001:402 JLINK_WriteReg(R10, 0x00000000)  returns 0x00 (0000ms, 0710ms total)
T09F8 001:402 JLINK_WriteReg(R11, 0x00000000)  returns 0x00 (0000ms, 0710ms total)
T09F8 001:402 JLINK_WriteReg(R12, 0x00000000)  returns 0x00 (0000ms, 0710ms total)
T09F8 001:402 JLINK_WriteReg(R13 (SP), 0x20001000)  returns 0x00 (0000ms, 0710ms total)
T09F8 001:402 JLINK_WriteReg(R14, 0x20000001)  returns 0x00 (0000ms, 0710ms total)
T09F8 001:402 JLINK_WriteReg(R15 (PC), 0x200000F4)  returns 0x00 (0000ms, 0710ms total)
T09F8 001:402 JLINK_WriteReg(XPSR, 0x01000000)  returns 0x00 (0000ms, 0710ms total)
T09F8 001:402 JLINK_WriteReg(MSP, 0x20001000)  returns 0x00 (0000ms, 0710ms total)
T09F8 001:402 JLINK_WriteReg(PSP, 0x20001000)  returns 0x00 (0000ms, 0710ms total)
T09F8 001:402 JLINK_WriteReg(CFBP, 0x00000000)  returns 0x00 (0000ms, 0710ms total)
T09F8 001:402 JLINK_SetBPEx(Addr = 0x20000000, Type = 0xFFFFFFF2)  returns 0x0000000B (0000ms, 0710ms total)
T09F8 001:402 JLINK_Go() -- CPU_ReadMem(4 bytes @ 0xE0001000) (0002ms, 0712ms total)
T09F8 001:404 JLINK_IsHalted()  returns FALSE (0000ms, 0712ms total)
T09F8 001:406 JLINK_IsHalted()  returns FALSE (0000ms, 0712ms total)
T09F8 001:408 JLINK_IsHalted()  returns FALSE (0000ms, 0712ms total)
T09F8 001:410 JLINK_IsHalted()  returns FALSE (0000ms, 0712ms total)
T09F8 001:412 JLINK_IsHalted()  returns FALSE (0000ms, 0712ms total)
T09F8 001:414 JLINK_IsHalted()  returns FALSE (0000ms, 0712ms total)
T09F8 001:416 JLINK_IsHalted()  returns FALSE (0000ms, 0712ms total)
T09F8 001:418 JLINK_IsHalted()  returns FALSE (0000ms, 0712ms total)
T09F8 001:420 JLINK_IsHalted()  returns FALSE (0000ms, 0712ms total)
T09F8 001:422 JLINK_IsHalted()  returns FALSE (0000ms, 0712ms total)
T09F8 001:424 JLINK_IsHalted()  returns FALSE (0000ms, 0712ms total)
T09F8 001:426 JLINK_IsHalted()  returns FALSE (0000ms, 0712ms total)
T09F8 001:428 JLINK_IsHalted()  returns FALSE (0000ms, 0712ms total)
T09F8 001:430 JLINK_IsHalted()  returns FALSE (0000ms, 0712ms total)
T09F8 001:432 JLINK_IsHalted()  returns FALSE (0000ms, 0712ms total)
T09F8 001:434 JLINK_IsHalted()  returns FALSE (0000ms, 0712ms total)
T09F8 001:436 JLINK_IsHalted() -- CPU_ReadMem(2 bytes @ 0x20000000)  returns TRUE (0001ms, 0713ms total)
T09F8 001:437 JLINK_ReadReg(R15 (PC))  returns 0x20000000 (0000ms, 0712ms total)
T09F8 001:437 JLINK_ClrBPEx(BPHandle = 0x0000000B)  returns 0x00 (0000ms, 0712ms total)
T09F8 001:437 JLINK_ReadReg(R0)  returns 0x00000000 (0000ms, 0712ms total)
T09F8 001:438 JLINK_WriteMem(0x20000164, 0x0400 Bytes, ...) - Data: 03 F0 97 FB 20 B1 08 20 03 F0 9D FB 04 20 5B E7 ... -- CPU_WriteMem(1024 bytes @ 0x20000164)  returns 0x400 (0002ms, 0714ms total)
T09F8 001:440 JLINK_WriteReg(R0, 0x08001C00)  returns 0x00 (0000ms, 0714ms total)
T09F8 001:440 JLINK_WriteReg(R1, 0x00000400)  returns 0x00 (0000ms, 0714ms total)
T09F8 001:440 JLINK_WriteReg(R2, 0x20000164)  returns 0x00 (0000ms, 0714ms total)
T09F8 001:440 JLINK_WriteReg(R3, 0x00000000)  returns 0x00 (0000ms, 0714ms total)
T09F8 001:440 JLINK_WriteReg(R4, 0x00000000)  returns 0x00 (0000ms, 0714ms total)
T09F8 001:440 JLINK_WriteReg(R5, 0x00000000)  returns 0x00 (0000ms, 0714ms total)
T09F8 001:440 JLINK_WriteReg(R6, 0x00000000)  returns 0x00 (0000ms, 0714ms total)
T09F8 001:440 JLINK_WriteReg(R7, 0x00000000)  returns 0x00 (0000ms, 0714ms total)
T09F8 001:440 JLINK_WriteReg(R8, 0x00000000)  returns 0x00 (0000ms, 0714ms total)
T09F8 001:440 JLINK_WriteReg(R9, 0x20000160)  returns 0x00 (0000ms, 0714ms total)
T09F8 001:440 JLINK_WriteReg(R10, 0x00000000)  returns 0x00 (0000ms, 0714ms total)
T09F8 001:440 JLINK_WriteReg(R11, 0x00000000)  returns 0x00 (0000ms, 0714ms total)
T09F8 001:440 JLINK_WriteReg(R12, 0x00000000)  returns 0x00 (0000ms, 0714ms total)
T09F8 001:440 JLINK_WriteReg(R13 (SP), 0x20001000)  returns 0x00 (0000ms, 0714ms total)
T09F8 001:440 JLINK_WriteReg(R14, 0x20000001)  returns 0x00 (0000ms, 0714ms total)
T09F8 001:440 JLINK_WriteReg(R15 (PC), 0x200000F4)  returns 0x00 (0000ms, 0714ms total)
T09F8 001:440 JLINK_WriteReg(XPSR, 0x01000000)  returns 0x00 (0000ms, 0714ms total)
T09F8 001:440 JLINK_WriteReg(MSP, 0x20001000)  returns 0x00 (0000ms, 0714ms total)
T09F8 001:440 JLINK_WriteReg(PSP, 0x20001000)  returns 0x00 (0000ms, 0714ms total)
T09F8 001:440 JLINK_WriteReg(CFBP, 0x00000000)  returns 0x00 (0000ms, 0714ms total)
T09F8 001:440 JLINK_SetBPEx(Addr = 0x20000000, Type = 0xFFFFFFF2)  returns 0x0000000C (0000ms, 0714ms total)
T09F8 001:440 JLINK_Go() -- CPU_ReadMem(4 bytes @ 0xE0001000) (0002ms, 0716ms total)
T09F8 001:442 JLINK_IsHalted()  returns FALSE (0000ms, 0716ms total)
T09F8 001:444 JLINK_IsHalted()  returns FALSE (0000ms, 0716ms total)
T09F8 001:446 JLINK_IsHalted()  returns FALSE (0000ms, 0716ms total)
T09F8 001:448 JLINK_IsHalted()  returns FALSE (0000ms, 0716ms total)
T09F8 001:450 JLINK_IsHalted()  returns FALSE (0000ms, 0716ms total)
T09F8 001:452 JLINK_IsHalted()  returns FALSE (0000ms, 0716ms total)
T09F8 001:453 JLINK_IsHalted()  returns FALSE (0000ms, 0716ms total)
T09F8 001:504 JLINK_IsHalted() -- CPU_ReadMem(2 bytes @ 0x20000000)  returns TRUE (0001ms, 0717ms total)
T09F8 001:506 JLINK_ReadReg(R15 (PC))  returns 0x20000000 (0000ms, 0716ms total)
T09F8 001:506 JLINK_ClrBPEx(BPHandle = 0x0000000C)  returns 0x00 (0000ms, 0716ms total)
T09F8 001:506 JLINK_ReadReg(R0)  returns 0x00000000 (0000ms, 0716ms total)
T09F8 001:506 JLINK_WriteMem(0x20000164, 0x0400 Bytes, ...) - Data: F7 D0 01 20 03 F0 95 F9 20 B1 01 20 03 F0 9B F9 ... -- CPU_WriteMem(1024 bytes @ 0x20000164)  returns 0x400 (0003ms, 0719ms total)
T09F8 001:509 JLINK_WriteReg(R0, 0x08002000)  returns 0x00 (0000ms, 0719ms total)
T09F8 001:509 JLINK_WriteReg(R1, 0x00000400)  returns 0x00 (0000ms, 0719ms total)
T09F8 001:509 JLINK_WriteReg(R2, 0x20000164)  returns 0x00 (0000ms, 0719ms total)
T09F8 001:509 JLINK_WriteReg(R3, 0x00000000)  returns 0x00 (0000ms, 0719ms total)
T09F8 001:509 JLINK_WriteReg(R4, 0x00000000)  returns 0x00 (0000ms, 0719ms total)
T09F8 001:509 JLINK_WriteReg(R5, 0x00000000)  returns 0x00 (0000ms, 0719ms total)
T09F8 001:509 JLINK_WriteReg(R6, 0x00000000)  returns 0x00 (0000ms, 0719ms total)
T09F8 001:509 JLINK_WriteReg(R7, 0x00000000)  returns 0x00 (0000ms, 0719ms total)
T09F8 001:509 JLINK_WriteReg(R8, 0x00000000)  returns 0x00 (0000ms, 0719ms total)
T09F8 001:509 JLINK_WriteReg(R9, 0x20000160)  returns 0x00 (0000ms, 0719ms total)
T09F8 001:509 JLINK_WriteReg(R10, 0x00000000)  returns 0x00 (0000ms, 0719ms total)
T09F8 001:509 JLINK_WriteReg(R11, 0x00000000)  returns 0x00 (0000ms, 0719ms total)
T09F8 001:509 JLINK_WriteReg(R12, 0x00000000)  returns 0x00 (0000ms, 0719ms total)
T09F8 001:509 JLINK_WriteReg(R13 (SP), 0x20001000)  returns 0x00 (0000ms, 0719ms total)
T09F8 001:509 JLINK_WriteReg(R14, 0x20000001)  returns 0x00 (0000ms, 0719ms total)
T09F8 001:509 JLINK_WriteReg(R15 (PC), 0x200000F4)  returns 0x00 (0000ms, 0719ms total)
T09F8 001:509 JLINK_WriteReg(XPSR, 0x01000000)  returns 0x00 (0000ms, 0719ms total)
T09F8 001:509 JLINK_WriteReg(MSP, 0x20001000)  returns 0x00 (0000ms, 0719ms total)
T09F8 001:509 JLINK_WriteReg(PSP, 0x20001000)  returns 0x00 (0000ms, 0719ms total)
T09F8 001:509 JLINK_WriteReg(CFBP, 0x00000000)  returns 0x00 (0000ms, 0719ms total)
T09F8 001:509 JLINK_SetBPEx(Addr = 0x20000000, Type = 0xFFFFFFF2)  returns 0x0000000D (0000ms, 0719ms total)
T09F8 001:509 JLINK_Go() -- CPU_ReadMem(4 bytes @ 0xE0001000) (0001ms, 0720ms total)
T09F8 001:510 JLINK_IsHalted()  returns FALSE (0000ms, 0720ms total)
T09F8 001:512 JLINK_IsHalted()  returns FALSE (0000ms, 0720ms total)
T09F8 001:514 JLINK_IsHalted()  returns FALSE (0000ms, 0720ms total)
T09F8 001:516 JLINK_IsHalted()  returns FALSE (0000ms, 0720ms total)
T09F8 001:518 JLINK_IsHalted()  returns FALSE (0000ms, 0720ms total)
T09F8 001:520 JLINK_IsHalted()  returns FALSE (0000ms, 0720ms total)
T09F8 001:522 JLINK_IsHalted()  returns FALSE (0000ms, 0720ms total)
T09F8 001:524 JLINK_IsHalted()  returns FALSE (0000ms, 0720ms total)
T09F8 001:526 JLINK_IsHalted()  returns FALSE (0000ms, 0720ms total)
T09F8 001:528 JLINK_IsHalted()  returns FALSE (0000ms, 0720ms total)
T09F8 001:530 JLINK_IsHalted()  returns FALSE (0000ms, 0720ms total)
T09F8 001:532 JLINK_IsHalted()  returns FALSE (0000ms, 0720ms total)
T09F8 001:534 JLINK_IsHalted()  returns FALSE (0000ms, 0720ms total)
T09F8 001:536 JLINK_IsHalted()  returns FALSE (0000ms, 0720ms total)
T09F8 001:538 JLINK_IsHalted()  returns FALSE (0000ms, 0720ms total)
T09F8 001:540 JLINK_IsHalted()  returns FALSE (0000ms, 0720ms total)
T09F8 001:542 JLINK_IsHalted() -- CPU_ReadMem(2 bytes @ 0x20000000)  returns TRUE (0001ms, 0721ms total)
T09F8 001:543 JLINK_ReadReg(R15 (PC))  returns 0x20000000 (0000ms, 0720ms total)
T09F8 001:543 JLINK_ClrBPEx(BPHandle = 0x0000000D)  returns 0x00 (0000ms, 0720ms total)
T09F8 001:543 JLINK_ReadReg(R0)  returns 0x00000000 (0000ms, 0720ms total)
T09F8 001:544 JLINK_WriteMem(0x20000164, 0x0400 Bytes, ...) - Data: 88 60 48 60 40 1E 08 60 01 20 48 61 00 20 C8 60 ... -- CPU_WriteMem(1024 bytes @ 0x20000164)  returns 0x400 (0002ms, 0722ms total)
T09F8 001:546 JLINK_WriteReg(R0, 0x08002400)  returns 0x00 (0000ms, 0722ms total)
T09F8 001:546 JLINK_WriteReg(R1, 0x00000400)  returns 0x00 (0000ms, 0722ms total)
T09F8 001:546 JLINK_WriteReg(R2, 0x20000164)  returns 0x00 (0000ms, 0722ms total)
T09F8 001:546 JLINK_WriteReg(R3, 0x00000000)  returns 0x00 (0000ms, 0722ms total)
T09F8 001:546 JLINK_WriteReg(R4, 0x00000000)  returns 0x00 (0000ms, 0722ms total)
T09F8 001:546 JLINK_WriteReg(R5, 0x00000000)  returns 0x00 (0000ms, 0722ms total)
T09F8 001:546 JLINK_WriteReg(R6, 0x00000000)  returns 0x00 (0000ms, 0722ms total)
T09F8 001:546 JLINK_WriteReg(R7, 0x00000000)  returns 0x00 (0000ms, 0722ms total)
T09F8 001:546 JLINK_WriteReg(R8, 0x00000000)  returns 0x00 (0000ms, 0722ms total)
T09F8 001:546 JLINK_WriteReg(R9, 0x20000160)  returns 0x00 (0000ms, 0722ms total)
T09F8 001:546 JLINK_WriteReg(R10, 0x00000000)  returns 0x00 (0000ms, 0722ms total)
T09F8 001:546 JLINK_WriteReg(R11, 0x00000000)  returns 0x00 (0000ms, 0722ms total)
T09F8 001:547 JLINK_WriteReg(R12, 0x00000000)  returns 0x00 (0000ms, 0722ms total)
T09F8 001:547 JLINK_WriteReg(R13 (SP), 0x20001000)  returns 0x00 (0000ms, 0722ms total)
T09F8 001:547 JLINK_WriteReg(R14, 0x20000001)  returns 0x00 (0000ms, 0722ms total)
T09F8 001:547 JLINK_WriteReg(R15 (PC), 0x200000F4)  returns 0x00 (0000ms, 0722ms total)
T09F8 001:547 JLINK_WriteReg(XPSR, 0x01000000)  returns 0x00 (0000ms, 0722ms total)
T09F8 001:547 JLINK_WriteReg(MSP, 0x20001000)  returns 0x00 (0000ms, 0722ms total)
T09F8 001:547 JLINK_WriteReg(PSP, 0x20001000)  returns 0x00 (0000ms, 0722ms total)
T09F8 001:547 JLINK_WriteReg(CFBP, 0x00000000)  returns 0x00 (0000ms, 0722ms total)
T09F8 001:547 JLINK_SetBPEx(Addr = 0x20000000, Type = 0xFFFFFFF2)  returns 0x0000000E (0000ms, 0722ms total)
T09F8 001:547 JLINK_Go() -- CPU_ReadMem(4 bytes @ 0xE0001000) (0001ms, 0723ms total)
T09F8 001:548 JLINK_IsHalted()  returns FALSE (0000ms, 0723ms total)
T09F8 001:550 JLINK_IsHalted()  returns FALSE (0000ms, 0723ms total)
T09F8 001:552 JLINK_IsHalted()  returns FALSE (0000ms, 0723ms total)
T09F8 001:554 JLINK_IsHalted()  returns FALSE (0000ms, 0723ms total)
T09F8 001:556 JLINK_IsHalted()  returns FALSE (0000ms, 0723ms total)
T09F8 001:558 JLINK_IsHalted()  returns FALSE (0000ms, 0723ms total)
T09F8 001:560 JLINK_IsHalted()  returns FALSE (0000ms, 0723ms total)
T09F8 001:562 JLINK_IsHalted()  returns FALSE (0000ms, 0723ms total)
T09F8 001:609 JLINK_IsHalted() -- CPU_ReadMem(2 bytes @ 0x20000000)  returns TRUE (0001ms, 0724ms total)
T09F8 001:610 JLINK_ReadReg(R15 (PC))  returns 0x20000000 (0000ms, 0723ms total)
T09F8 001:610 JLINK_ClrBPEx(BPHandle = 0x0000000E)  returns 0x00 (0000ms, 0723ms total)
T09F8 001:610 JLINK_ReadReg(R0)  returns 0x00000000 (0000ms, 0723ms total)
T09F8 001:613 JLINK_WriteMem(0x20000164, 0x0400 Bytes, ...) - Data: C0 6B 4C F2 3A 31 88 43 91 49 C8 63 02 20 8F 49 ... -- CPU_WriteMem(1024 bytes @ 0x20000164)  returns 0x400 (0002ms, 0725ms total)
T09F8 001:616 JLINK_WriteReg(R0, 0x08002800)  returns 0x00 (0000ms, 0725ms total)
T09F8 001:616 JLINK_WriteReg(R1, 0x00000400)  returns 0x00 (0000ms, 0725ms total)
T09F8 001:616 JLINK_WriteReg(R2, 0x20000164)  returns 0x00 (0000ms, 0725ms total)
T09F8 001:616 JLINK_WriteReg(R3, 0x00000000)  returns 0x00 (0000ms, 0725ms total)
T09F8 001:616 JLINK_WriteReg(R4, 0x00000000)  returns 0x00 (0000ms, 0725ms total)
T09F8 001:616 JLINK_WriteReg(R5, 0x00000000)  returns 0x00 (0000ms, 0725ms total)
T09F8 001:616 JLINK_WriteReg(R6, 0x00000000)  returns 0x00 (0000ms, 0725ms total)
T09F8 001:616 JLINK_WriteReg(R7, 0x00000000)  returns 0x00 (0000ms, 0725ms total)
